! Created with skrf (http://scikit-rf.org).
# Hz S RI R 50.0 
!freq ReS11 ImS11 ReS21 ImS21 ReS12 ImS12 ReS22 ImS22
100000000.0 -0.346610735341901 -0.23464423410914131 -0.6473622818994091 0.6355256160290071 -0.6274212040317321 0.6163017747893195 -0.24164058702401484 -0.35236366952598647
101900000.0 -0.35525328476894846 -0.2322532198008878 -0.6369270005800367 0.6419854381909458 -0.6172925925287637 0.6225731017293827 -0.2485557468810932 -0.3548517204719178
103800000.0 -0.3638221064770572 -0.2296130575671701 -0.6264755849715112 0.6482344154534829 -0.6071479341922499 0.6286393080887863 -0.2554635479665327 -0.3571824850312152
105700000.0 -0.3723106581747804 -0.22672802878669118 -0.6160129185658625 0.6542754355410159 -0.5969920135768915 0.6345031887588102 -0.26236021128817555 -0.359358190327409
107600000.0 -0.3807126416681312 -0.22360255067815274 -0.6055436945633029 0.6601114848442027 -0.5868294292494477 0.6401676376712213 -0.26924209881344396 -0.3613811395006763
109500000.0 -0.38902200220255184 -0.22024116347123207 -0.5950724164452292 0.665745638554786 -0.5766645941688394 0.6456356379837461 -0.276105713035519 -0.36325370435754
111400000.0 -0.3972329272077453 -0.21664851798688167 -0.5846033989907121 0.6711810511087659 -0.5665017365237147 0.6509102525634487 -0.28294769620869975 -0.36497831825296106
113300000.0 -0.4053398444885121 -0.21282936364652713 -0.574140769704873 0.6764209469514811 -0.5563449009954107 0.655994614783459 -0.2897648292765666 -0.36655746921483695
115200000.0 -0.4133374199041442 -0.2087885369262533 -0.563688470627921 0.681468611635778 -0.5461979504144712 0.6608919196458423 -0.2965540305163237 -0.36799369331903803
117100000.0 -0.4212205545784353 -0.20453095026872822 -0.5532502604941121 0.6863273832620146 -0.5360645677792939 0.6656054152408621 -0.30331235392233674 -0.36928956832146714
119000000.0 -0.42898438168140696 -0.20006158146249786 -0.5428297172106308 0.6910006442664788 -0.5259482586061808 0.6701383945505403 -0.3100369873512553 -0.37044770755187073
120900000.0 -0.43662426282276606 -0.19538546349540362 -0.5324302406271122 0.6954918135628204 -0.5158523535806897 0.6744941876021864 -0.31672525045063016 -0.3714707540727933
122800000.0 -0.4441357840960119 -0.1905076748861122 -0.5220550555675132 0.699804339039034 -0.5057800114812003 0.6786761539754703 -0.32337459239212685 -0.3723613751054029
124700000.0 -0.4515147518106449 -0.18543333049529787 -0.5117072150969338 0.7039416904109491 -0.49573422234644865 0.6826876756647722 -0.3299825894297829 -0.3731222567228828
126600000.0 -0.4587571879486499 -0.18016757281568022 -0.5013896039970692 0.7079073524314137 -0.485717810859914 0.6865321502967259 -0.3365469423029405 -0.37375609881068916
128500000.0 -0.4658593253797213 -0.1747155637380602 -0.4911049424251366 0.7117048184529612 -0.47573343992507217 0.6902129847012641 -0.34306547350262134 -0.37426561029192684
130400000.0 -0.4728176028682778 -0.16908247678855953 -0.4808557897321299 0.7153375843403812 -0.4657836144065946 0.6937335888330889 -0.34953612441934623 -0.37465350461522523
132300000.0 -0.4796286599035085 -0.16327348983062615 -0.47064454841764836 0.7188091427284005 -0.45587068501399414 0.6970973700390961 -0.35595695238934294 -0.37492249550138884
134200000.0 -0.4862893313821943 -0.15729377822380933 -0.4604734681995083 0.7221229776186527 -0.4459968523052199 0.7003077276661878 -0.36232612765539346 -0.37507529294452635
136100000.0 -0.49279664217220603 -0.15114850842996924 -0.45034465017778885 0.7252825593090773 -0.4361641707891586 0.7033680480028233 -0.3686419302574851 -0.375114599462516
138000000.0 -0.499147801582964 -0.14484283205646686 -0.44026005107400334 0.7282913396481425 -0.42637455310714106 0.7062816995467861 -0.3749027468676429 -0.3750431065911165
139900000.0 -0.5053401977674421 -0.1383818803248232 -0.4302214875274299 0.7311527476055123 -0.41662977427489795 0.709052028590857 -0.38110706758232726 -0.3748634916154581
141800000.0 -0.5113713920786613 -0.13177075895250165 -0.420230640431714 0.7338701851501642 -0.40693147596753626 0.7116823551174015 -0.3872534826850221 -0.3745784145322761
143700000.0 -0.5172391134019043 -0.12501454343478843 -0.4102890592961676 0.7364470234264948 -0.3972811708315148 0.7141759689923618 -0.3933406793905408 -0.3741905152357668
145600000.0 -0.5229412524824071 -0.11811827471310495 -0.4003981666171804 0.7388865992184633 -0.3876802468085654 0.7165361264486213 -0.39936743858204543 -0.37370241091975975
147500000.0 -0.5284758562665484 -0.11108695521571832 -0.3905592622464839 0.7411922116915446 -0.3781299714579399 0.7187660468484417 -0.4053326315505349 -0.3731166936885037
149400000.0 -0.5338411222732659 -0.10392554525638079 -0.38077352774386325 0.7433671194019797 -0.3686314962642323 0.7208689097142899 -0.411235216746174 -0.3724359283683715
151300000.0 -0.5390353930107417 -0.09663895977629244 -0.37104203070319813 0.7454145375626468 -0.359185860919349 0.7228478520172682 -0.4170742365497007 -0.3716626505124553
153200000.0 -0.544057150452257 -0.08923206541454268 -0.36136572904152453 0.747337635554734 -0.3497939975680793 0.7247059657121754 -0.4228488140716424 -0.3707993645901242
155100000.0 -0.5489050105834854 -0.08170967789222858 -0.3517454752419375 0.7491395346743915 -0.34045673500785334 0.7264462955081813 -0.4285581499862288 -0.3698485423534199
157000000.0 -0.5535777180325311 -0.0740765596954067 -0.34218202054197167 0.7508233061035244 -0.3311748028341424 0.7280718368641632 -0.434201519406201 -0.3688126213723512
158900000.0 -0.5580741407925336 -0.06633741804215072 -0.3326760190600383 0.7523919690939231 -0.32194883552394254 0.7295855341976849 -0.4397782688041606 -0.3676940037309947
160800000.0 -0.5623932650457056 -0.05849690311914899 -0.32322803185332394 0.753848489354043 -0.3127793764506032 0.730990279296808 -0.445287812985384 -0.36649505487653294
162700000.0 -0.5665341900964912 -0.05055960657348837 -0.31383853090131425 0.7551957776279102 -0.3036668818240925 0.732288909924029 -0.45072963211651007 -0.36521810261342846
164600000.0 -0.5704961234205875 -0.0425300602455157 -0.3045079030099186 0.7564366884557877 -0.2946117245515944 0.7334842086018285 -0.4561032688138467 -0.3638654362350106
166500000.0 -0.5742783758355109 -0.03441273512899724 -0.29523645363180223 0.7575740191064219 -0.2856141980139932 0.7345789015695163 -0.4614083252947154 -0.3624393057849894
168400000.0 -0.5778803567976346 -0.02621204054507982 -0.2860244105992395 0.7586105086709252 -0.2766745197545469 0.7355756579012909 -0.4666444605945865 -0.36094192144148246
170300000.0 -0.5813015698297141 -0.017932323517000893 -0.276871927766373 0.7595488373086802 -0.26779283507661156 0.7364770887757561 -0.4718113878523938 -0.35937545301647555
172200000.0 -0.5845416080821739 -0.009577868332810583 -0.26777908855840665 0.7603916256358098 -0.25896922054794574 0.7372857468873567 -0.47690887166595314 -0.35774202956365597
174100000.0 -0.5876001500306821 -0.001152896283810998 -0.25874590942568176 0.7611414342471118 -0.25020368740958066 0.738004125990493 -0.48193672551909983 -0.3560437390879323
176000000.0 -0.5904769553119958 0.007338434433132587 -0.24977234320118466 0.761800763362674 -0.24149618488780805 0.7386346605674543 -0.4868948092816837 -0.35428262835009167
177900000.0 -0.5931718606993057 0.015892028660868782 -0.24085828236042467 0.7623720525906545 -0.23284660340828522 0.7391797256115825 -0.4917830267832887 -0.3524607027602887
179800000.0 -0.5956847762179328 0.02450385408580056 -0.23200356218303525 0.7628576807980422 -0.22425477771163507 0.7396416365173787 -0.4966013234612716 -0.35057992635432267
181700000.0 -0.5980156814015382 0.03316994091084023 -0.22320796381586452 0.7632599660815284 -0.21572048987036882 0.7400226490696635 -0.5013496840833764 -0.3486422218468577
183600000.0 -0.6001646216887413 0.04188638140754052 -0.21447121723764928 0.7635811658310202 -0.20724347220728984 0.7403249595242272 -0.5060281305449003 -0.34664947075600877
185500000.0 -0.6021317049595547 0.05064932935707526 -0.20579300412566123 0.7638234768784883 -0.19882341011579435 0.7405507047726639 -0.510636719740291 -0.3446035135939616
187400000.0 -0.6039170982105817 0.059454999389231065 -0.19717296062505987 0.7639890357253565 -0.19045994478290013 0.7407019625845302 -0.5151755415086661 -0.34250615011847657
189300000.0 -0.6055210243678173 0.06829966622816741 -0.18861068002184914 0.7640799188418324 -0.18215267581594377 0.7407807519202328 -0.5196447166526832 -0.3403591396404764
191200000.0 -0.6069437592354004 0.07717966385326966 -0.18010571532066258 0.7640981430319168 -0.17390116377422996 0.7407890333083492 -0.5240443950300183 -0.33816420138301523
193100000.0 -0.6081856285784771 0.08609138458296521 -0.17165758172873474 0.764045665858223 -0.16570493260706112 0.7407287092815104 -0.5283747537164428 -0.3359230148872766
195000000.0 -0.609247005338204 0.09503127808897398 -0.1632657590476401 0.7639243861209248 -0.1575634719997891 0.7406016248651813 -0.5326359952395002 -0.3336372204613836
196900000.0 -0.6101283069765391 0.10399585034807031 -0.15492969397449802 0.7637361443855434 -0.14947623962963721 0.7404095681140355 -0.5368283458816093 -0.33130841966809504
198800000.0 -0.6108299929485098 0.11298166253800626 -0.14664880231452765 0.7634827235545342 -0.1414426633332429 0.7401542706909058 -0.5409520540512808 -0.3289381758476391
200700000.0 -0.6113525622993304 0.1219853298839024 -0.13842247110691847 0.7631658494779477 -0.1334621431879338 0.7398374084836103 -0.5450073887210934 -0.3265280146721486
202600000.0 -0.6116965513837593 0.13100352046100205 -0.13025006066609965 0.762787191598668 -0.12553405350887883 0.7394606022551721 -0.548994637931021 -0.3240794247283688
204500000.0 -0.61186253170492 0.14003295395936924 -0.122130906540571 0.7623483636280552 -0.11765774476431551 0.7390254183233002 -0.5529141073555836 -0.32159385812552177
206400000.0 -0.6118511078697396 0.14907040041574593 -0.11406432139153556 0.7618509242480399 -0.10983254541114969 0.7385333692651842 -0.5567661189332747 -0.31907273112537066
208300000.0 -0.6116629156581578 0.1581126789174509 -0.10604959679361939 0.7612963778359736 -0.10205776365323917 0.737985914643991 -0.5605510095566969 -0.3165174247917299
210200000.0 -0.6112986202031349 0.16715665628292334 -0.09808600496000286 0.760686175208807 -0.0943326891247494 0.7373844617536036 -0.5642691298217639 -0.31392928565686706
212100000.0 -0.6107589142785798 0.17619924572315634 -0.09017280039436247 0.7600217143833345 -0.08665659450097468 0.7367303663784567 -0.5679208428343341 -0.31130962640231585
214000000.0 -0.6100445166921384 0.18523740548805623 -0.0823092214719609 0.7593043413495235 -0.07902873703903605 0.7360249335654782 -0.5715065230726494 -0.30865972655193397
215900000.0 -0.6091561707800485 0.19426813750141367 -0.07449449195232676 0.7585353508541679 -0.07144836005089616 0.7352694184054218 -0.575026555303847 -0.3059808331750478
217800000.0 -0.6080946430009324 0.20328848598798216 -0.0667278224259034 0.7577159871922036 -0.06391469431109865 0.7344650268210147 -0.5784813335529718 -0.3032741615977428
219700000.0 -0.6068607216257894 0.2122955360958701 -0.059008411697062745 0.7568474450033512 -0.056426959401659316 0.7336129163595833 -0.5818712601227687 -0.3005408961205284
221600000.0 -0.6054552155211806 0.22128641251724415 -0.05133544810589309 0.7559308700718487 -0.048984364996517725 0.7327141969879869 -0.585196744662625 -0.29778219074063805
223500000.0 -0.6038789530228604 0.2302582781101244 -0.04370811079108838 0.7549673601272295 -0.041586112087905046 0.731769931887882 -0.5884582032850316 -0.2949991698774908
225400000.0 -0.6021327808969897 0.23920833252383045 -0.03612557089632691 0.7539579656442755 -0.03423139415701825 0.7307811382494351 -0.5916560577279677 -0.2921929290998039
227300000.0 -0.6002175633862235 0.248133810830468 -0.02858699272242326 0.7529036906404216 -0.02691939829128853 0.7297487880618818 -0.5947907345615978 -0.2893645358531194
229200000.0 -0.5981341813380388 0.2570319821646638 -0.021091534827559436 0.7518054934690527 -0.019649306250563107 0.7286738088993598 -0.5978626644377225 -0.2865150301864795
231100000.0 -0.5958835314125583 0.26590014837354514 -0.013638351077831443 0.750664287607251 -0.012420295484429935 0.7275570847006402 -0.60087228138046 -0.2836454254771743
233000000.0 -0.5934665253674772 0.2747356426788818 -0.006226591650320564 0.7494809424366958 -0.0052315401028981785 0.7263994565415157 -0.6038200221166661 -0.28075670915255124
234900000.0 -0.5908840894175039 0.28353582835308305 0.0011445960091254633 0.7482562840165888 0.0019177881973877545 0.7252017233987335 -0.6067063254445538 -0.27784984340795327
236800000.0 -0.5881371636659297 0.2922980974106611 0.008476066271299739 0.7469910958474559 0.009028519249305781 0.7239646429044049 -0.60953163163922 -0.27492576591996143
238700000.0 -0.5852267016060062 0.30101986931662106 0.015768674450143585 0.745686119625015 0.016101483571696405 0.7226889320900685 -0.6122963818935097 -0.2719853905541908
240600000.0 -0.5821536696898413 0.3096985897131177 0.023023275968316236 0.7443420559831533 0.02313751156407377 0.7213752681195611 -0.6150010177930126 -0.26902960806695264
242500000.0 -0.5789190469626826 0.3183317291656271 0.0302407255598516 0.7429595652253768 0.03013743273763026 0.7200242890100141 -0.6176459808237628 -0.2660592868001649
244400000.0 -0.5755238247604044 0.32691678192980145 0.03742187650797118 0.7415392680440182 0.037102074980625725 0.7186365943403779 -0.6202317119114257 -0.26307527336898956
246300000.0 -0.5719690064681985 0.33545126474001 0.04456757991616805 0.7400817462266908 0.04403226385628731 0.7172127459469425 -0.6227586509907129 -0.260078393341698
248200000.0 -0.5682556073385325 0.34393271562057476 0.05167868401070571 0.7385875433495168 0.050928821931386876 0.7157532686054412 -0.6252272366038054 -0.25706945191130925
250100000.0 -0.5643846543664303 0.35235869272060644 0.05875603347279986 0.7370571654566972 0.05779256813377451 0.7142586506993237 -0.6276379055266692 -0.2540492345587044
252000000.0 -0.5603571862203502 0.36072677317323765 0.06580046879868488 0.7354910817261587 0.06462431713709771 0.7127293448739883 -0.629991092422087 -0.2510185077067861
253900000.0 -0.5561742532268228 0.36903455198004975 0.07281282568594372 0.7338897251209817 0.07142487877110015 0.7111657686766609 -0.6322872295183937 -0.24797801936550345
255800000.0 -0.5518369174072715 0.37727964092142013 0.07979393444442834 0.7322534930264325 0.07819505745584614 0.709568305181837 -0.6345267463128144 -0.24492849976742948
257700000.0 -0.5473462525653542 0.38545966749341865 0.08674461943019146 0.7305827478724737 0.08493565165832759 0.7079373036021065 -0.6367100692984589 -0.2418706619937223
259600000.0 -0.5427033444233528 0.39357227387194815 0.09366569850092554 0.7288778177416873 0.09164745336995139 0.7062730798843947 -0.6388376217139715 -0.23880520259031715
261500000.0 -0.5379092908060908 0.4016151159046547 0.10055798249136519 0.7271389969625643 0.09833124760341526 0.7045759172915499 -0.6409098233149474 -0.2357328021741673
263400000.0 -0.532965201871053 0.409585862131237 0.10742227470728198 0.725366546688211 0.10498781190759093 0.7028460669693612 -0.6429270901662196 -0.23265412602950514
265300000.0 -0.5278722003832704 0.4174821928326403 0.114259370436613 0.7235606954605536 0.11161791589901886 0.7010837484991037 -0.6448898344541578 -0.22956982469396822
267200000.0 -0.5226314220338297 0.42530179910970184 0.12107005647642476 0.7217216397601339 0.11822232080870307 0.6992891504357276 -0.6467984643182129 -0.2264805345346011
269100000.0 -0.5172440158006582 0.43304238199172806 0.127855110674379 0.719849544541668 0.12480177904293852 0.6974624308318796 -0.6486533837008903 -0.22338687831366555
271000000.0 -0.5117111443505062 0.4407016515754794 0.13461530148344697 0.7179445437555767 0.13135703375690586 0.6956037177479714 -0.650454992215445 -0.22028946574426547
272900000.0 -0.5060339844809469 0.44827732619511773 0.1413513875286796 0.716006740855704 0.1378888184398896 0.6937131097485211 -0.6522036850305812 -0.21718889403580535
274800000.0 -0.5002137276014319 0.4557671316235132 0.14806411718480716 0.7140362092935033 0.1443978565109197 0.6917906763850802 -0.6538998527715023 -0.21408574842926947
276700000.0 -0.4942515802522602 0.46316880030546376 0.1547542281635918 0.7120329929989777 0.15088486092377118 0.6898364586660132 -0.6555438814366547 -0.210980602722411
278600000.0 -0.4881487646605915 0.47048007062327074 0.16142244710978115 0.70999710684872 0.1573505337802154 0.6878504695135118 -0.6571361523295933 -0.20787401978484046
280500000.0 -0.4819065193325062 0.4776986861952102 0.1680694892046713 0.707928537121396 0.16379556595053613 0.6858326942081668 -0.6586770420053657 -0.20476655206315772
282400000.0 -0.47552609968026965 0.4848223952073584 0.1746960577761857 0.705827241941068 0.1702206367002665 0.6837830908215246 -0.6601669222308867 -0.2016587420760904
284300000.0 -0.46900877868388224 0.49184894977932425 0.18130284391455842 0.7036931517087659 0.17662641332224377 0.681701590637021 -0.6616061599587912 -0.19855112289982446
286200000.0 -0.46235584758614445 0.49877610536440475 0.18789052609262616 0.7015261695227335 0.1830135507730147 0.6795880985597321 -0.6629951173142683 -0.19544421864352715
288100000.0 -0.455568616620402 0.5056016201847365 0.19445976978984436 0.6993261715878195 0.1893826913127441 0.6774424935154144 -0.664334151594445 -0.19233854491519456
290000000.0 -0.4486484157702229 0.5123232547019898 0.20101122711914363 0.697093007614496 0.1957344641477509 0.6752646288393146 -0.6656236152798428 -0.18923460927790411
291900000.0 -0.4415965955602093 0.5189387711242206 0.2075455364557785 0.6948265012079906 0.20206948507486494 0.6730543326552283 -0.6668638560575556 -0.1861329116965564
293800000.0 -0.43441452787728335 0.5254459329494966 0.21406332206737452 0.692526450248079 0.20838835612681955 0.6708114082453605 -0.6680552168557157 -0.1830339449752243
295700000.0 -0.42710360682165405 0.5318425045469417 0.220565193744374 0.6901926272600643 0.21469166521792146 0.6685356344115121 -0.6691980358889249 -0.17993819518517562
297600000.0 -0.41966524958680057 0.5381262507758694 0.22705174643015488 0.6878247797775205 0.22097998578927705 0.666226765828148 -0.6702926467142978 -0.17684614208368563
299500000.0 -0.4121008973677936 0.544294936643731 0.23352355985009526 0.6854226306973621 0.22725387645289308 0.6638845333879393 -0.6713393782978075 -0.17375825952372523
301400000.0 -0.4044120162972187 0.5503463270035827 0.2399811981388939 0.6829858786278625 0.23351388063396514 0.6615086445403433 -0.6723385550906475 -0.17067501585460285
303300000.0 -0.39660009840800986 0.5562781862918678 0.24642520946552027 0.6805141982302451 0.23976052621075766 0.659098783623881 -0.6732904971153016 -0.16759687431367157
305200000.0 -0.38866666262258487 0.5620882783073035 0.2528561256551278 0.6780072405544322 0.24599432515143937 0.6566546121926813 -0.6741955200611381 -0.16452429340915758
307100000.0 -0.38061325576746513 0.5677743660317094 0.2592744618073693 0.6754646333696889 0.25221577314731736 0.6541757693379854 -0.6750539353892127 -0.16145772729420077
309000000.0 -0.3724414536127735 0.5733342114936542 0.2656807159105346 0.6728859814907616 0.2584253492419303 0.6516618720052558 -0.675866050446101 -0.15839762613218
310900000.0 -0.3641528619358354 0.5787655756758175 0.2720753684509721 0.6702708671002381 0.264623515455462 0.6491125153075378 -0.6766321685865724 -0.15534443645337728
312800000.0 -0.35574911760815786 0.5840662184670257 0.27845888201728536 0.667618850067824 0.2708107164040061 0.6465272728358282 -0.6773525893048786 -0.15229860150304025
314700000.0 -0.34723188970507 0.5892338986599417 0.284831700898842 0.664929468267267 0.27698737891322495 0.6439056969670958 -0.678027608374509 -0.149260561580919
316600000.0 -0.33860288063716926 0.594266373995398 0.29119425067811455 0.662202237891651 0.283153911625944 0.6412473191707289 -0.6786575179962525 -0.14623075437226501
318500000.0 -0.329863827302867 0.599161401254482 0.2975469378164655 0.6594366537678491 0.28931070460331626 0.6385516503141142 -0.6792426069544139 -0.14320961527038215
