! Created with skrf (http://scikit-rf.org).
# Hz S RI R 50.0 
!freq ReS11 ImS11 ReS21 ImS21 ReS12 ImS12 ReS22 ImS22
100000000.0 -0.34661088716216615 -0.23464425316227272 0.6473621621349352 -0.6355256799796267 0.6274213291603863 -0.6163015679423504 -0.2416405505500745 -0.35236344673372066
101900000.0 -0.3552534402195705 -0.23225323449263052 0.6369268775083089 -0.6419854990306605 0.6172927171239666 -0.6225728996031713 -0.24855570940447355 -0.35485149796256255
103800000.0 8.468311602741727e-259 1.1948675692141257e-253 8.525648219600494e-254 2.5655065153385717e-307 1.0235346867149232e-306 2.5646373334026136e-307 3.661738049862269e-244 4.23145674525683e-307
105700000.0 1.6260043419654464e-260 2.1999562988247716e-152 1.0316971760119572e-13 1.0387856152602562e-13 5.673277027229525e+247 5.253405363363177e+170 1.0387856152602562e-13 1.0387856152602562e-13
107600000.0 1.0387856152602562e-13 1.349273406009337e+63 3.1709585814889378e+180 1.1307264348419768e+277 4.193342953218919e+228 2.0675273712807584e+161 5.253032113982521e+170 8.58420625481214e+183
109500000.0 2.2743484962757825e+161 1.2862550723900325e+248 1.4285355972458955e+248 7.144059744683004e+247 2.316470913022494e-152 1.1087238375426835e+219 4.900945866504602e+252 1.6937526689278334e+190
111400000.0 4.232735668768903e+175 2.4518172763372496e+256 8.7252597072445e+183 5.382034172506158e+276 1.7785982336592703e-104 7.727797129681601e+228 1.8145631580813288e-152 3.8098584709666796e+180
113300000.0 1.4691553917857263e+195 4.731035722814058e+164 6.964110925932487e+252 2.5944138380757165e+161 3.2967370423362433e+180 1.5061713976049314e+161 4.823377270272504e+228 1.8225093126542563e+185
115200000.0 4.8958424834273695e-85 3.8199595514372956e+180 9.750252643748805e+199 7.203655733412679e+159 1.8159689052055878e-152 2.212103154354055e+214 8.706505906553816e+183 7.391442902836357e+97
117100000.0 2.0911781836442108e-90 1.0143035898004407e-91 3.3415392606530884e-28 7.666715152485712e+228 1.1860049612835812e-259 1.0996512683346919e+248 5.648787442885886e+188 4.2451022239132594e+175
119000000.0 9.443679870945769e+222 6.12030516069178e+257 5.981297857334491e-154 7.727797132841725e+228 6.013345416373684e-154 1.2906068854084035e+248 2.871730990219484e+257 6.2183924002209274e+175
120900000.0 3.929873933500959e+209 4.44028320663982e+252 4.232735668781177e+175 7.727797129681601e+228 2.2000411224353872e+161 1.2190609913279356e-152 4.4759381595313166e-91 4.4759381595361623e-91
122800000.0 4.4759381595361623e-91 6.989075227829448e+96 5.253092720464935e+170 1.3385683696488061e-152 6.788755847736626e+199 7.727797128548247e+228 2.1394693196878992e+161 2.034394310873107e+174
124700000.0 4.719806205881834e+164 9.323623736866064e+242 2.1723340630273477e-153 1.378449428495255e-153 1.125457675677533e-153 2.6653232575166775e-260 3.1968786221925054e+137 5.397132087951131e+295
126600000.0 4.770938010673049e+180 3.5407373809219334e+155 6.494275777509752e+276 1.2169790916907371e-152 1.4692344321552336e+195 9.716829330900734e+189 5.466479935758313e+241 1.6779184375696446e+243
128500000.0 2.054507790770805e+161 1.4319038966479372e+214 7.266070766412558e+223 5.803979444427425e+180 8.784113254187062e+247 6.458342444786877e+170 7.751110725561589e+228 1.1432300379567651e+243
130400000.0 6.629017915286307e+265 1.3111907131318207e+214 5.561117020141979e+180 1.7189798444291226e+161 3.1709586815632104e+180 5.040791892441241e+223 1.4691553916281775e+195 9.716829330900734e+189
132300000.0 2.1953003842827886e-152 6.952576735577202e+96 1.4410015613081388e+218 7.863419393769255e+59 3.4498127602237304e+175 1.5589452700297548e+161 1.0375838996483659e+243 3.941394853197215e+180
134200000.0 1.3572494014150928e+248 1.8159689052053697e-152 2.1394693196879002e+161 5.303877584715376e+180 2.3528715225143937e+251 1.3578642964861574e+243 8.821420061214785e+199 1.3385685900905793e-152
136100000.0 7.3518223299365e+228 5.756819749082484e+252 2.657653461566124e-258 1.6749482415061283e+243 6.010999484683337e+175 1.06314416495855e+248 1.073872562053823e+200 9.094902184459675e+223
138000000.0 1.7281681899843543e+97 1.75699775612779e-152 1.7953779138975172e+185 1.718980145744854e+161 1.3980686942076305e-152 2.3556879291774467e+251 8.892511298166076e+271 3.099057494551439e+169
139900000.0 3.753687376412e+193 3.7769260391497094e+180 1.2773173630502567e-152 1.173653847004399e+214 8.339175863902977e+236 3.3007754844479617e+180 5.832839438598517e+252 8.894976685194394e+252
141800000.0 3.1709585737814446e+180 8.830807340072199e+199 6.788690566781877e+199 6.898004647495319e+212 2.1818707134230105e+243 4.952704633355303e+223 2.7086731475905956e+257 1.4692355734603115e+195
143700000.0 6.802772096759244e+199 4.522871578902389e+217 2.2000648727337132e+161 3.029077633434662e-152 5.804323883527668e+180 3.9937267925492076e+252 2.1818707134236848e+243 1.4692355689613738e+195
145600000.0 8.587668735172339e-53 1.108719768639579e+219 1.0536808744845366e-153 1.038189341233138e-28 8.010686455351575e-95 5.987388267340828e+247 1.421951979372867e+151 2.3505320796332047e+180
147500000.0 4.232023014623613e+175 5.047586884087895e+223 7.351969363912036e+223 5.0462067982056525e+180 9.894909564935067e+197 1.695061429531521e+190 2.199871902697251e-152 4.068690814017378e+233
149400000.0 9.08367202794459e+223 5.143113702066787e+257 2.450663529215178e+198 2.4518186751363996e+256 2.35904845528849e+251 2.034394310929113e+174 1.7785982336592703e-104 7.727797129681601e+228
151300000.0 2.4692847428918918e-27 2.637335553015806e+265 6.109442601966146e+223 8.87663404398233e+247 2.3163399541165426e-152 7.353107519093772e+223 9.083672028819884e+223 1.7846923447934778e+161
153200000.0 1.490054706508629e+195 7.497368177901042e+247 1.675004449715178e+243 2.314631972170996e-152 1.9481113814505786e+227 1.2190609133789467e-152 8.887695965161185e+252 3.1605331171197136e+233
155100000.0 1.3385686149993697e-152 7.3518223299365e+228 2.1952731065596342e-152 1.0206999149411558e-28 6.218138861119333e+175 7.258827576328418e+43 1.421951979372867e+151 1.469234432155224e+195
157000000.0 4.4402822798779056e+252 1.4692199778605792e+195 1.7281666244344144e+97 5.556035921996142e+180 5.324543610624149e+233 7.351822329847205e+228 3.992645107087248e+252 9.659419060852454e-153
158900000.0 1.3288198381388337e+179 4.2451021651304616e+175 1.4410503644919754e+218 7.863419393769255e+59 3.776924062980654e+180 6.196334262967732e+223 3.1050117583569374e+169 2.3505419365605017e+180
160800000.0 4.787190251453608e+180 4.443904914766278e+252 3.040401802737336e+180 1.144905406135991e+243 3.9926451041021235e+252 9.659419060852454e-153 1.951326097822239e+227 1.0985134431155803e+248
162700000.0 7.359845662674353e+223 3.589363653024842e+246 4.521766221766645e+217 9.076523932080383e+223 3.093903392168727e+169 2.5306420017129297e-258 2.320679205966518e-152 7.22764259651028e+159
164600000.0 1.961280353215783e-152 1.693750992627129e+190 1.1582446759776938e-152 1.8144839710234024e-152 1.2190609905467173e-152 3.292526466826695e+180 5.835229950240932e+257 4.523945846657511e+217
166500000.0 9.921714467228384e+247 2.0474820867487082e+161 9.083672028549479e+223 2.350539965494707e+180 4.781796531691653e+180 2.6462503330759435e-260 1.3326167779226887e+228 6.010999460773397e+175
168400000.0 2.642801366253401e+180 4.440282279877905e+252 4.4759381595361623e-91 4.4759381595361623e-91 4.475937842009641e-91 4.4759381595361623e-91 4.4759381595361623e-91 4.4759381595361623e-91
170300000.0 1.1860049612835812e-259 2.037289544102172e+174 1.0639653240662473e+224 2.9199616706448406e+257 9.750223303114629e+199 1.4692288627706503e+195 6.981176911373058e+194 8.800914285732781e+199
172200000.0 2.359008502145169e+251 5.308862637160574e+180 9.85185453782503e+83 1.6682800553143835e+243 2.101785084810305e-90 1.1563529811744831e-259 4.960381186087226e+180 6.010999637678798e+175
174100000.0 3.685724462738213e+180 3.1509194784946984e+161 2.781070992015705e+180 7.727797129681571e+228 1.354258473358826e+243 2.315976137237192e+251 5.466530431096961e+241 4.719806308319058e+164
176000000.0 9.323623736866064e+242 1.125457675677533e-153 7.863523836711604e+59 2.5868533914270235e+161 2.6653232575166775e-260 2.586853390477694e+161 1.0818801439524693e-75 2.586853390837813e+161
177900000.0 2.0305583468682038e+180 1.2773173630483053e-152 9.436201967797644e+136 8.784113511076172e+247 1.693750992627129e+190 2.199956298824751e-152 4.2404887907197185e+175 5.251854066533482e+170
179800000.0 7.229399099410215e+159 4.4622702368200875e+217 5.267507869556094e+170 1.4306663790716177e+151 2.4276853389473804e-154 2.8674996931122433e+161 7.308592423425382e+223 3.1709585814889304e+180
181700000.0 2.642801366257175e+180 1.3876000337665685e+219 3.1042660558485136e+169 2.321618704296477e-152 4.787190251453608e+180 2.58415048700692e+161 8.911015922528352e+252 1.6937441872655202e+190
183600000.0 4.7128006074927815e+257 1.555399500835394e+161 1.4877624594011652e+195 8.698003593692864e+183 1.4691553873846461e+195 5.819963349808361e+257 1.277346576813705e-152 5.026887191543284e+223
185500000.0 2.9005720819954182e+159 1.6937569568679408e+190 5.818423473693087e+180 6.140250987144455e+257 1.4439405877915586e+214 5.848736564346925e+199 1.0618555395172172e-153 9.820229429765287e+241
187400000.0 9.453206036548333e+218 4.9090005721562105e+252 2.2088520524828487e+161 1.3288224623602879e-258 1.6749482891868674e+243 7.0437858312637646e+199 4.2327356687812e+175 7.727797129681601e+228
189300000.0 1.7563103226409951e-152 9.177166555109322e+170 1.7281682727892575e+97 3.687774265580222e+180 7.33953036075507e+223 7.698438238497878e+218 4.520676326614021e+217 2.905264886759619e+159
191200000.0 1.0375838996511347e+243 1.8145039472056383e-152 1.219060990549643e-152 7.2035467767598e+159 2.455344442182563e+198 6.268065437848392e-38 2.347269254962185e+251 2.2885377576867e+243
193100000.0 1.948583062492233e+227 1.714809619026364e+219 2.4700514187811154e+82 2.1999562988247563e-152 1.9462605584991605e+227 6.468099833669701e+170 7.353107519093772e+223 1.469228890118278e+195
195000000.0 1.7196341257272577e+238 6.964107375559039e+252 4.4759381595361623e-91 4.4759381595361623e-91 5.8328394385985275e+252 2.5265591940190917e-258 4.4759381595361623e-91 4.4759381595361623e-91
196900000.0 4.4759381595361623e-91 4.4759381595361623e-91 4.824065629146288e+228 7.497368199281753e+247 4.4759381595361623e-91 4.440324942748316e+252 2.314597410781515e-152 1.5061713891484597e+161
198800000.0 6.964110925932487e+252 3.170958635432895e+180 2.350529956150284e+180 5.808320633702133e+180 6.205423833618475e+223 4.168710720521713e+199 2.3876333858977748e+190 3.1509194784946964e+161
200700000.0 1.3542690549246985e+243 6.21813886089258e+175 1.288986274448874e+248 1.3907485371231704e-258 7.39144290343196e+97 1.1752016536754141e+180 4.2389520213826634e+175 2.4564935979667213e+198
202600000.0 1.5943197117303496e+16 3.9937267925492076e+252 1.1444959745737363e+243 1.1117591398343896e+171 3.94610983422436e+180 1.8767344776825656e-152 9.181389830505479e+170 9.75023807368154e+199
204500000.0 3.8118727582640935e+180 7.220829441700572e+159 2.2163241271523126e+214 1.2190609913701018e-152 8.739775003343813e+183 1.0985134383540355e+248 1.693750992627129e+190 5.047516265424976e+223
206400000.0 1.0441981342311069e+228 6.225581430498947e+82 1.2754939105078797e+232 8.010658304733707e-95 2.1999562988247563e-152 7.724911332482011e+228 3.5407373809219334e+155 4.596515976077148e-72
208300000.0 3.170958123383529e+180 7.698438238497878e+218 9.094902184458017e+223 1.5061714100982862e+161 7.497251091491006e+247 2.645198758010325e+185 7.266066113729776e+223 1.1712256978509801e+166
210200000.0 1.0595275601226735e+277 5.834395072286471e+252 1.4692355108510225e+195 2.1394693196879002e+161 4.770929824138649e+180 5.038535663169915e+223 5.324542455603131e+233 1.3445257589638566e+161
212100000.0 6.059794970564998e+233 6.898004624171683e+212 9.357246757735269e-153 2.0474067877920976e+161 7.391442902039073e+97 5.633782713627172e+35 5.981297853596217e-154 1.5651662127362413e+151
214000000.0 1.1951254014903709e+185 -2.5216938781602633e+166 2.333831451524513e+251 1.1419943655770194e+243 1.440320154099232e+214 5.783977166998874e-101 2.469284742891887e-27 8.784112905072308e+247
215900000.0 4.900945688604894e+252 2.2763573753913597e+232 4.771666110259163e+180 7.485435286566095e+247 1.1444805354521902e+243 4.787190251453608e+180 3.483197402314024e+228 2.350537976918074e+180
217800000.0 7.351821834500954e+228 1.0206864296103828e-28 1.1444805354517542e+243 1.277346576716442e-152 2.1855682887222265e+156 1.2773174427532343e-152 3.6811992362036897e+180 2.4692847428918667e-27
219700000.0 1.872242593544916e+156 4.678720026648232e+180 2.4320754225893833e-152 2.3146174050789592e-152 5.556035922782771e+180 2.87521417089374e+161 3.2997736414695945e+180 1.8159689052055878e-152
221600000.0 6.221141046312265e+82 8.023791185735403e-95 1.180321097363142e+243 1.1736507809448931e+214 2.0545313885127617e+161 9.858455393675577e+197 2.433959939860573e-152 9.177166555109322e+170
223500000.0 1.8136499704311204e-152 1.1254576756784155e-153 1.1486835777899485e+296 1.0861921670190063e-153 2.6653232575166775e-260 2.1723738948641384e-153 3.6796159564923174e+151 5.860832601977103e+135
225400000.0 3.054614823619646e-67 4.655013307874449e+185 1.0347505404655127e-28 3.6622516107197694e+151 7.883772253436093e+59 2.6919478659449267e-260 1.4692344321552313e+195 4.232735668767152e+175
227300000.0 5.040791892441241e+223 5.561117020141979e+180 1.1803210973631384e+243 3.302471793013993e-258 1.2190609916195663e-152 1.3791024626121345e+185 7.085196629297609e+194 3.776935885987514e+180
229200000.0 1.133375907485164e-153 5.223738140521062e+257 1.8767344776819705e-152 9.463581706421302e+218 1.3445204292790702e+161 4.068690517189339e+233 3.029037659508561e-152 8.889367054642e+247
231100000.0 2.8422526350235815e-66 6.42609351789345e-67 2.1998029875943603e-152 6.95257555386019e+96 1.8225093126542355e+185 1.8159689052325579e-152 9.302249061895905e+242 2.3206609971815417e-152
233000000.0 9.353106121520147e+252 7.339503639750444e+223 9.08366792581525e+223 1.277346576716442e-152 6.218138633450364e+175 8.928825021645126e+271 1.7196304723434446e+238 2.527595315347272e-258
234900000.0 1.2917320593963457e+171 4.701024405961505e+180 4.232735668767112e+175 2.0506972601148934e+214 8.739774370060147e+183 5.382034172506158e+276 2.1018936485801706e-90 2.3206792059643482e-152
236800000.0 3.1711143452370044e+180 1.1436551893942483e+243 4.475938159531317e-91 1.1254577533595126e-153 1.618772916194386e+87 2.5196941890073337e+180 8.717178494945793e-153 7.727797129681603e+228
238700000.0 2.288537756891812e+243 5.020727086791808e+276 1.6376734206846094e-152 1.144288436153517e+243 7.207061534616914e+159 2.1999562989341522e-152 528400.0625776092 4.74026000210464e+180
240600000.0 5.2942512163417405e+160 9.508476809025466e+77 1.6770881016234616e+243 6.208457353139646e-38 1.6933669279143581e-152 7.724934465302674e+228 1.0240457618363198e-259 5.0810101267498684e+233
242500000.0 8.821359831217795e+199 6.789690682187409e+199 1.2684170699352669e-259 5.6841167719722425e+281 6.25151164106377e-85 2.8561509877355496e+256 3.328182507913443e+63 1.3768453945030408e-94
244400000.0 3.294799084521562e+161 7.34631222984995e+223 5.933843649298102e+276 1.227450746114398e-259 1.0592346135301885e-153 1.1333757251061e-153 1.163372674469332e+214 1.1283837935868938e-153
246300000.0 3.2931148268154e+161 2.9581399259081885e+170 7.52030200518128e+252 3.373311731653588e+63 1.6937560550234088e+190 2.913156610393198e-152 5.804323883527668e+180 7.351637249243459e+228
248200000.0 -2.1020036942063196e-304 3.172865926513401e-153 3.03667980960463e-152 1.0509313802850313e-153 3.328330976272994e+63 5.804323883527668e+180 8.052347467031912e-96 1.1470941897021646e-259
250100000.0 5.535882668296776e-48 1.313819893459206e-71 1.484739686449785e-76 8.582919244129327e-72 4.579136040336843e-72 7.508858098765824e+199 1.0862375735282155e-71 2.852562383791496e-304
252000000.0 3.059127401689724e+159 4.824065640706412e+228 1.3571072172954417e+166 4.629164396987612e-303 3.2362586991564903e+161 4.0558830605e-314 5.561117018204379e+180 8.037966636884708e+67
253900000.0 1.3042019408582217e-288 6.468099833663772e+170 6.063865883448776e-66 1.714809619026561e+219 4.687304586395205e+180 9.083672062552859e+223 2.2004102782646016e-256 9.778269709163389e+199
255800000.0 3.2194973e-317 0.0 2.484866888042151e-297 2.5063802052556103e-292 2.000000014901161 1.11297053806e-312 9.174432421183462e-278 1.2917718587056163e-263
257700000.0 8.455722726331873e-259 5.541542471335096e-254 2.871384934540329e+161 1.7492370264484785e+243 2.620317881559794e-232 6.84976763285406e+180 2.101923677175494e-90 1.948111381504331e+227
259600000.0 3.99818056380406e+252 5.824713743953238e+257 6.013469535222258e-154 4.4759381595361623e-91 6.013344343463534e-154 2.764553386384191e+257 6.118454719899359e+82 5.3820619453287906e+228
261500000.0 6.013470015117461e-154 2.6428011165617964e+180 7.883770541213374e+59 3.994611089195178e+252 5.82477779462566e+252 1.6779200240528097e+243 6.01347001699904e-154 5.040791892432825e+223
263400000.0 5.224113645144473e+257 1.1052774257403367e+281 6.013469534617857e-154 2.355597753941835e+251 5.743397580241981e+257 4.672629205167192e+164 4.5379293372317185e+217 1.6959873432150476e+161
265300000.0 3.59018364929155e+246 3.3710221364888975e+257 6.214527756908954e+175 5.981890935010369e-154 3.1267018052934974e+185 5.981810937429898e-154 1.3231224934287265e+199 3.7769121831222726e+180
267200000.0 5.046206566712696e+180 4.447129823272389e+217 5.981901892889533e-154 9.061483628397094e+227 4.460134146353301e+217 1.9526228515799898e-153 6.191806859449096e+223 1.0375838996518143e+243
269100000.0 1.8145039472056383e-152 2.391176137654643e+151 1.9727985361719567e-153 6.013469535312122e-154 1.8912225297288368e+219 1.1444837470153257e+243 1.3571072757118767e+166 5.7567777930857014e+252
271000000.0 1.0640025029756353e+248 1.626910643757084e+219 4.475938159070003e-91 9.742203236843032e+232 6.013344343458098e-154 2.4659853950360294e-154 8.114882571691902e+88 4.516430213863871e+217
272900000.0 1.2805925574785575e-152 9.0836721659019e+223 4.24515646313794e+175 2.6098570028821493e+180 8.828945856614132e+199 5.7095143086818476e+228 1.5239476106945033e-258 2.3528840150298823e+251
274800000.0 4.639646054208713e+199 9.353106121303028e+252 2.3478242811758587e+251 6.09114651004658e+247 1.4889029576347681e+195 3.280971649628906e-85 1.3560847115716447e+248 7.872659523027404e+276
276700000.0 3.523379243612647e+246 2.321119802981993e-152 7.203669671712481e+159 1.288985282434446e+248 2.433009422257984e-152 9.338299203241853e+252 1.3445107715602388e+161 1.6882159715237744e+195
278600000.0 6.013469534266473e-154 9.79882228071162e+252 2.3489669807473735e+251 9.778013775516131e+199 7.203655733414661e+159 3.6806590899813975e+180 7.454031419960608e+247 1.7756796344889084e+248
280500000.0 6.214527756908999e+175 4.009790485225329e+87 4.4759381595361623e-91 1.125470242927606e-153 2.5196941890073337e+180 4.4681172998457765e-91 8.717178494945793e-153 7.727797129681603e+228
282400000.0 2.288537756891812e+243 5.020727086791808e+276 1.6376734206846094e-152 1.144288436153517e+243 7.207061534616914e+159 2.1999562989341522e-152 6.013470015092958e-154 1.2969999875727706e-85
284300000.0 1.0212291650375904e+277 9.0836720265114e+223 4.096551558540467e+87 3817704.8940258496 9.31660822468623e+199 3.4833237152949295e+228 1.5680468114075775e-76 6.013469528779372e-154
286200000.0 5.0810101267498684e+233 8.821359831217795e+199 2.8561509877355496e+256 1.2684170699352669e-259 6.789690682187409e+199 6.25151164106377e-85 3.31982263794592e-309 0.0
288100000.0 1.390671161664138e-308 6.113981370439158e-85 1.2776770235454863e+294 2.126087474741604e+289 2.0080778128846955e+289 2.093855559263005e-289 5.721942590048621e+173 1.7598345814570213e+265
290000000.0 5.041249495596004e-266 1.6775153938615625e+243 2.4131754414064246e+185 9.853845349722148e-300 1.172318840343141e+166 1.6775153936138954e+243 4.1262892704e-313 1.2862539378176582e+248
